TIME,V(XTOP:P),V(XTOP:IN),V(XTOP:VPWR),V(XTOP:X),I(XTOP:VIN_DRIVER),I(XTOP:CLOADP),I(XTOP:CLOADX),I(XTOP:VPOWER)
0.00000000e+00,1.79999999e+00,0.00000000e+00,1.80000000e+00,2.60627094e-09,4.92875326e-52,0.00000000e+00,0.00000000e+00,-3.82846623e-12
1.00000000e-12,1.79999999e+00,0.00000000e+00,1.80000000e+00,2.60627092e-09,7.50176385e-22,0.00000000e+00,-3.83998012e-20,-3.82846625e-12
3.00000000e-12,1.79999999e+00,0.00000000e+00,1.80000000e+00,2.60627085e-09,1.00815328e-21,0.00000000e+00,-7.05668948e-20,-3.82846625e-12
7.00000000e-12,1.79999999e+00,0.00000000e+00,1.80000000e+00,2.60627094e-09,1.21452206e-20,0.00000000e+00,1.57255502e-19,-3.82846612e-12
1.50000000e-11,1.79999999e+00,0.00000000e+00,1.80000000e+00,2.60627080e-09,-1.93486925e-20,0.00000000e+00,-2.25428231e-19,-3.82846634e-12
3.10000000e-11,1.79999999e+00,0.00000000e+00,1.80000000e+00,2.60627098e-09,2.92870085e-20,9.86076132e-20,2.69589038e-19,-3.82846610e-12
6.10000000e-11,1.79999999e+00,0.00000000e+00,1.80000000e+00,2.60627082e-09,-4.27271729e-20,-9.86076132e-20,-2.90377262e-19,-3.82846630e-12
9.10000000e-11,1.79999999e+00,0.00000000e+00,1.80000000e+00,2.60627108e-09,2.61318942e-20,9.86076132e-20,3.25293457e-19,-3.82846610e-12
1.21000000e-10,1.79999999e+00,0.00000000e+00,1.80000000e+00,2.60627074e-09,-2.92379348e-20,-9.86076132e-20,-3.71295184e-19,-3.82846631e-12
1.51000000e-10,1.79999999e+00,0.00000000e+00,1.80000000e+00,2.60627098e-09,2.60042643e-20,9.86076132e-20,4.03679871e-19,-3.82846610e-12
1.81000000e-10,1.79999999e+00,0.00000000e+00,1.80000000e+00,2.60627088e-09,-2.86444363e-20,-9.86076132e-20,-4.17565609e-19,-3.82846631e-12
2.11000000e-10,1.79999999e+00,0.00000000e+00,1.80000000e+00,2.60627086e-09,2.37198611e-20,9.86076132e-20,4.14955233e-19,-3.82846611e-12
2.41000000e-10,1.79999999e+00,0.00000000e+00,1.80000000e+00,2.60627090e-09,-2.92806982e-20,-1.51198340e-19,-4.08587577e-19,-3.82846633e-12
2.71000000e-10,1.79999999e+00,0.00000000e+00,1.80000000e+00,2.60627084e-09,4.51476101e-20,2.03789067e-19,4.00708260e-19,-3.82846614e-12
3.00000000e-10,1.79999999e+00,0.00000000e+00,1.80000000e+00,2.60627096e-09,-3.21663892e-20,-2.03789067e-19,-3.84954653e-19,-3.82846628e-12
3.00793052e-10,1.80497221e+00,2.85498710e-02,1.80000000e+00,6.82763080e-04,-5.48094681e-05,1.25394663e-05,1.72185556e-06,2.56555796e-05
3.01422651e-10,1.80878268e+00,5.12154272e-02,1.80000000e+00,1.12664657e-03,-5.48792966e-05,1.21044077e-05,1.41005191e-06,2.63022655e-05
3.02681848e-10,1.81616621e+00,9.65465398e-02,1.80000000e+00,1.85294735e-03,-5.48518515e-05,1.13503193e-05,8.97134190e-07,2.74128718e-05
3.05200243e-10,1.82974294e+00,1.87208765e-01,1.80000000e+00,2.60635851e-03,-5.50066212e-05,1.02137836e-05,2.99518632e-07,2.91837364e-05
3.10237034e-10,1.85397069e+00,3.68533215e-01,1.80000000e+00,2.89353604e-03,-5.51562757e-05,9.02684008e-06,-7.14547159e-08,3.11534316e-05
3.20310614e-10,1.89595928e+00,7.31182115e-01,1.80000000e+00,2.46568627e-03,-5.89681507e-05,7.64591841e-06,-9.84351316e-08,2.90212289e-05
3.21569812e-10,1.89954221e+00,7.76513228e-01,1.80000000e+00,2.26751184e-03,-5.96319982e-05,5.69080477e-06,-3.14763053e-07,2.75211218e-05
3.24088207e-10,1.90278360e+00,8.67175453e-01,1.80000000e+00,1.49177167e-03,-6.13478668e-05,-5.42450086e-07,-9.17355213e-07,2.33522797e-05
3.29124997e-10,1.87693156e+00,1.04849990e+00,1.80000000e+00,-2.38086181e-03,-6.34724907e-05,-1.99881236e-05,-2.15812204e-06,1.29827720e-05
3.33658109e-10,1.80219601e+00,1.21169191e+00,1.80000000e+00,-8.64210779e-03,-5.58318402e-05,-4.59582328e-05,-3.36677742e-06,1.65703220e-06
3.37598216e-10,1.69185060e+00,1.35353579e+00,1.80000000e+00,-1.55580903e-02,-5.22114208e-05,-6.60645092e-05,-3.65433263e-06,-7.94741725e-06
3.41144313e-10,1.55635260e+00,1.48119528e+00,1.80000000e+00,-2.31678728e-02,-5.23791057e-05,-8.67773293e-05,-4.92950770e-06,-8.90177322e-06
3.44690410e-10,1.39129016e+00,1.60885477e+00,1.80000000e+00,-3.28892481e-02,-5.46145990e-05,-9.94132254e-05,-6.03621092e-06,-1.64845283e-05
3.48236507e-10,1.20103817e+00,1.73651426e+00,1.80000000e+00,-4.76336191e-02,-5.52232146e-05,-1.15191159e-04,-1.05954505e-05,-1.82266312e-05
3.50000000e-10,1.09892853e+00,1.80000000e+00,1.80000000e+00,-5.79945345e-02,-5.70841894e-05,-1.16416565e-04,-1.29054452e-05,-2.50480194e-05
3.50208326e-10,1.08598413e+00,1.80000000e+00,1.80000000e+00,-5.95195763e-02,-1.22411760e-05,-1.24270510e-04,-1.46409046e-05,-4.28665945e-05
3.50393696e-10,1.07451259e+00,1.80000000e+00,1.80000000e+00,-6.08824847e-02,-1.16410550e-05,-1.23769442e-04,-1.47047787e-05,-4.36148029e-05
3.50764435e-10,1.05166601e+00,1.80000000e+00,1.80000000e+00,-6.36351456e-02,-1.14800143e-05,-1.22728389e-04,-1.49944049e-05,-4.41040466e-05
3.51505912e-10,1.00641135e+00,1.80000000e+00,1.80000000e+00,-6.92223800e-02,-1.14296131e-05,-1.21403821e-04,-1.51466677e-05,-4.45767743e-05
3.52988868e-10,9.17493173e-01,1.80000000e+00,1.80000000e+00,-8.05759446e-02,-1.11292758e-05,-1.18436603e-04,-1.54774830e-05,-4.70528212e-05
3.55954779e-10,7.44963298e-01,1.80000000e+00,1.80000000e+00,-1.01774681e-01,-1.10277287e-05,-1.14247185e-04,-1.31123616e-05,-5.56470909e-05
3.58920691e-10,5.79607582e-01,1.80000000e+00,1.80000000e+00,-1.13600207e-01,-1.17455036e-05,-1.08761117e-04,-2.83622791e-06,-6.92491629e-05
3.61886602e-10,4.27212831e-01,1.80000000e+00,1.80000000e+00,-1.03290151e-01,-1.45874002e-05,-9.67672764e-05,1.67409666e-05,-8.32109313e-05
3.64852514e-10,2.97586685e-01,1.80000000e+00,1.80000000e+00,-6.13352731e-02,-1.43188458e-05,-7.80540576e-05,3.98418136e-05,-9.45424817e-05
3.67521834e-10,2.07003768e-01,1.80000000e+00,1.80000000e+00,3.10884178e-03,-1.14818079e-05,-5.76852446e-05,5.67282623e-05,-1.00094536e-04
3.70191154e-10,1.41259621e-01,1.80000000e+00,1.80000000e+00,8.71612151e-02,-8.56422739e-06,-4.08329410e-05,6.92249623e-05,-1.03279830e-04
3.72860474e-10,9.58006620e-02,1.80000000e+00,1.80000000e+00,1.85483193e-01,-5.82483299e-06,-2.72877108e-05,7.81113912e-05,-1.03757840e-04
3.75529795e-10,6.53953621e-02,1.80000000e+00,1.80000000e+00,2.92829718e-01,-4.01059422e-06,-1.82749000e-05,8.27483257e-05,-1.03449608e-04
3.78199115e-10,4.54893929e-02,1.80000000e+00,1.80000000e+00,4.05196706e-01,-2.51051181e-06,-1.15543708e-05,8.56345991e-05,-1.01658774e-04
3.80868435e-10,3.26222056e-02,1.80000000e+00,1.80000000e+00,5.19679690e-01,-1.73888357e-06,-7.72722307e-06,8.59191643e-05,-9.98871490e-05
3.86207076e-10,1.85845094e-02,1.80000000e+00,1.80000000e+00,7.47021035e-01,-5.92522491e-07,-2.79058291e-06,8.44173434e-05,-9.43427069e-05
3.91545716e-10,1.29711853e-02,1.80000000e+00,1.80000000e+00,9.65035064e-01,-3.44259554e-07,-1.41522497e-06,7.89306320e-05,-8.79296565e-05
3.96884357e-10,1.06608213e-02,1.80000000e+00,1.80000000e+00,1.16452193e+00,-4.14760848e-08,-3.15825479e-07,7.05357841e-05,-7.80052480e-05
4.02222997e-10,1.04187098e-02,1.80000000e+00,1.80000000e+00,1.33205515e+00,8.08200830e-10,1.34422364e-07,5.49892184e-05,-6.39671583e-05
4.07561638e-10,1.15354605e-02,1.80000000e+00,1.80000000e+00,1.45926949e+00,1.86320380e-07,7.02308024e-07,4.03266880e-05,-4.94623212e-05
4.12366414e-10,1.17777449e-02,1.80000000e+00,1.80000000e+00,1.54497026e+00,-1.41869665e-07,-5.00605057e-07,3.10196274e-05,-3.96886318e-05
4.17171191e-10,1.09524179e-02,1.80000000e+00,1.80000000e+00,1.61001393e+00,-1.11068570e-08,-1.86483741e-07,2.31295441e-05,-3.03127521e-05
4.21975967e-10,9.48851764e-03,1.80000000e+00,1.80000000e+00,1.65912139e+00,-2.61455615e-07,-1.03222039e-06,1.77526601e-05,-2.38469076e-05
4.26780744e-10,7.82529194e-03,1.80000000e+00,1.80000000e+00,1.69595762e+00,-4.74643507e-08,-3.52423177e-07,1.29136816e-05,-1.75095314e-05
4.31585520e-10,6.23223180e-03,1.80000000e+00,1.80000000e+00,1.72341165e+00,-2.49444651e-07,-9.73807214e-07,9.94193923e-06,-1.37134993e-05
4.36390296e-10,4.84464611e-03,1.80000000e+00,1.80000000e+00,1.74376781e+00,-8.52719324e-09,-1.81364694e-07,7.00466080e-06,-9.66026796e-06
4.45999849e-10,2.77387547e-03,1.80000000e+00,1.80000000e+00,1.77028125e+00,-1.84624081e-07,-6.80598670e-07,4.03162157e-06,-5.69531721e-06
4.65218955e-10,7.09289081e-04,1.80000000e+00,1.80000000e+00,1.79305001e+00,8.84666166e-08,2.50904093e-07,7.07155241e-07,-9.65327807e-07
5.03657167e-10,-8.95008944e-05,1.80000000e+00,1.80000000e+00,1.80081785e+00,-1.06832855e-07,-3.34028666e-07,1.01190629e-07,-1.76266689e-07
5.38251557e-10,1.21664296e-05,1.80000000e+00,1.80000000e+00,1.79989983e+00,1.09171989e-07,3.45784019e-07,-2.07337360e-07,3.23047626e-07
5.72845948e-10,-1.93441561e-06,1.80000000e+00,1.80000000e+00,1.80000553e+00,-1.09587009e-07,-3.47414439e-07,2.19558780e-07,-3.40345565e-07
6.00000000e-10,8.53194847e-07,1.80000000e+00,1.80000000e+00,1.80000088e+00,1.09742057e-07,3.47825076e-07,-2.20243661e-07,3.41176223e-07
6.00864860e-10,-3.08594688e-03,1.76886505e+00,1.80000000e+00,1.79932338e+00,4.69250101e-05,-7.13826728e-06,-1.56672150e-06,-2.04670017e-05
6.01540481e-10,-5.24224783e-03,1.74454268e+00,1.80000000e+00,1.79887520e+00,4.71408575e-05,-6.38316392e-06,-1.32673847e-06,-2.03414531e-05
6.02891724e-10,-9.13568389e-03,1.69589794e+00,1.80000000e+00,1.79811070e+00,4.71277826e-05,-5.14233323e-06,-9.36353059e-07,-1.96787265e-05
6.05594209e-10,-1.50224415e-02,1.59860846e+00,1.80000000e+00,1.79717710e+00,4.73748656e-05,-3.57076844e-06,-4.45485869e-07,-1.90207382e-05
6.10999180e-10,-2.34349334e-02,1.40402951e+00,1.80000000e+00,1.79640463e+00,4.83354483e-05,-2.65497601e-06,-1.26187700e-07,-1.86435145e-05
6.21809122e-10,-4.44553650e-02,1.01487161e+00,1.80000000e+00,1.79479613e+00,5.65990205e-05,-5.12320887e-06,-4.69004904e-07,-2.46748566e-05
6.32619064e-10,-5.79889343e-02,6.25713700e-01,1.80000000e+00,1.79535271e+00,6.01739585e-05,1.15385661e-07,6.74954508e-07,-4.78344827e-05
6.33938688e-10,-5.57210320e-02,5.78207220e-01,1.80000000e+00,1.79622544e+00,5.74003729e-05,3.43719351e-06,1.32269747e-06,-5.06908911e-05
6.36577937e-10,-4.66120006e-02,4.83194260e-01,1.80000000e+00,1.79879332e+00,5.51067546e-05,1.03682970e-05,2.56914469e-06,-5.93191098e-05
6.39217186e-10,-2.82061148e-02,3.88181299e-01,1.80000000e+00,1.80331989e+00,5.48380064e-05,1.75273453e-05,4.29124152e-06,-6.95265728e-05
6.41856435e-10,4.26315116e-04,2.93168339e-01,1.80000000e+00,1.80966060e+00,5.35086612e-05,2.58674704e-05,5.31862862e-06,-7.96651042e-05
6.44495684e-10,3.93417075e-02,1.98155378e-01,1.80000000e+00,1.81736020e+00,5.55468254e-05,3.31120255e-05,6.35074490e-06,-9.10531392e-05
6.47134933e-10,8.91584833e-02,1.03142418e-01,1.80000000e+00,1.82642203e+00,5.46977654e-05,4.23894186e-05,7.38321154e-06,-1.01834647e-04
6.49774182e-10,1.49847251e-01,8.12945746e-03,1.80000000e+00,1.83675948e+00,5.74684823e-05,4.95894277e-05,8.28405891e-06,-1.13507552e-04
6.50000000e-10,1.55545486e-01,-1.11022302e-15,1.80000000e+00,1.83770405e+00,5.57251889e-05,5.13454678e-05,8.44736102e-06,-1.14034645e-04
6.50225818e-10,1.62290842e-01,0.00000000e+00,1.80000000e+00,1.83890588e+00,5.21784585e-06,5.97414518e-05,1.06442482e-05,-8.71621617e-05
6.50451637e-10,1.69020829e-01,0.00000000e+00,1.80000000e+00,1.84008925e+00,4.91782416e-06,5.96053400e-05,1.04807283e-05,-8.67066920e-05
6.50903273e-10,1.82467063e-01,0.00000000e+00,1.80000000e+00,1.84242463e+00,4.88905187e-06,5.94836441e-05,1.02029616e-05,-8.61338605e-05
6.51806546e-10,2.09264574e-01,0.00000000e+00,1.80000000e+00,1.84691676e+00,4.88449463e-06,5.91848410e-05,9.68971653e-06,-8.51309093e-05
6.53613092e-10,2.62472528e-01,0.00000000e+00,1.80000000e+00,1.85529447e+00,4.82245265e-06,5.86266089e-05,8.85996011e-06,-8.32853913e-05
6.57226184e-10,3.67265561e-01,0.00000000e+00,1.80000000e+00,1.87035397e+00,4.74254695e-06,5.73881811e-05,7.81218247e-06,-8.04283463e-05
6.64452369e-10,5.69371624e-01,0.00000000e+00,1.80000000e+00,1.89765630e+00,4.49426180e-06,5.44861091e-05,7.30082015e-06,-7.68410143e-05
6.71678553e-10,7.58792307e-01,0.00000000e+00,1.80000000e+00,1.91591290e+00,4.19361469e-06,5.03662850e-05,2.80498271e-06,-7.63974287e-05
6.78904738e-10,9.31360600e-01,0.00000000e+00,1.80000000e+00,1.89150932e+00,3.79968122e-06,4.51575949e-05,-1.63134037e-05,-7.89398763e-05
6.79974980e-10,9.55082634e-01,0.00000000e+00,1.80000000e+00,1.88075822e+00,3.75503206e-06,4.43302206e-05,-2.00909623e-05,-7.93159240e-05
6.81045222e-10,9.78687811e-01,0.00000000e+00,1.80000000e+00,1.86882497e+00,3.75618234e-06,4.38934674e-05,-2.45092251e-05,-7.96023223e-05
6.83185706e-10,1.02501150e+00,0.00000000e+00,1.80000000e+00,1.83785161e+00,3.68645783e-06,4.26732853e-05,-3.33718197e-05,-7.95899576e-05
6.85326190e-10,1.07097547e+00,0.00000000e+00,1.80000000e+00,1.79635868e+00,3.83735497e-06,4.32212314e-05,-4.41675055e-05,-8.01339354e-05
6.87466674e-10,1.11551157e+00,0.00000000e+00,1.80000000e+00,1.74774782e+00,3.65924447e-06,4.00049837e-05,-4.66733614e-05,-8.37554017e-05
6.91747643e-10,1.20475257e+00,0.00000000e+00,1.80000000e+00,1.60800523e+00,4.44032376e-06,4.33789606e-05,-8.38976471e-05,-7.11788238e-05
6.95361969e-10,1.27359972e+00,0.00000000e+00,1.80000000e+00,1.45877192e+00,4.22608694e-06,3.28146562e-05,-8.12599020e-05,-7.52256526e-05
6.98976295e-10,1.33517468e+00,0.00000000e+00,1.80000000e+00,1.28644417e+00,5.20497154e-06,3.53307828e-05,-1.09456413e-04,-6.27438787e-05
7.02590621e-10,1.38927429e+00,0.00000000e+00,1.80000000e+00,1.09525496e+00,4.83811599e-06,2.45416278e-05,-1.02134029e-04,-6.55466288e-05
7.06204948e-10,1.43667210e+00,0.00000000e+00,1.80000000e+00,8.90020446e-01,5.44128455e-06,2.79138667e-05,-1.25000437e-04,-5.33525544e-05
7.09819274e-10,1.47790371e+00,0.00000000e+00,1.80000000e+00,6.75931745e-01,4.59448338e-06,1.77174403e-05,-1.11933023e-04,-5.58948570e-05
7.13433600e-10,1.51365875e+00,0.00000000e+00,1.80000000e+00,4.61844382e-01,4.87495060e-06,2.18529152e-05,-1.24998956e-04,-4.44877704e-05
7.17047926e-10,1.54278614e+00,0.00000000e+00,1.80000000e+00,2.75413370e-01,3.31900821e-06,1.03825737e-05,-8.13255467e-05,-4.70212499e-05
7.20300820e-10,1.56601983e+00,0.00000000e+00,1.80000000e+00,1.55249113e-01,4.26487673e-06,1.81872902e-05,-6.64373667e-05,-3.53580396e-05
7.23137858e-10,1.58652706e+00,0.00000000e+00,1.80000000e+00,8.94094009e-02,3.65884221e-06,1.07262922e-05,-2.63914192e-05,-3.72468367e-05
7.25974897e-10,1.60729261e+00,0.00000000e+00,1.80000000e+00,5.04650192e-02,4.59130355e-06,1.85514845e-05,-2.85170787e-05,-2.72783709e-05
7.28811935e-10,1.62735437e+00,0.00000000e+00,1.80000000e+00,2.86767586e-02,3.57791258e-06,9.73401679e-06,-2.20264537e-06,-2.96012295e-05
7.31648974e-10,1.64630220e+00,0.00000000e+00,1.80000000e+00,1.69174968e-02,4.31147065e-06,1.69809228e-05,-1.43769837e-05,-2.10982290e-05
7.37323051e-10,1.67934328e+00,0.00000000e+00,1.80000000e+00,6.62549590e-03,2.75017205e-06,6.31172945e-06,7.12153003e-06,-2.13654901e-05
7.42997128e-10,1.70614687e+00,0.00000000e+00,1.80000000e+00,3.85073654e-03,3.13933791e-06,1.25837455e-05,-9.07762565e-06,-1.22038405e-05
7.48671205e-10,1.72720871e+00,0.00000000e+00,1.80000000e+00,2.71378285e-03,1.57974297e-06,2.26401895e-06,8.27611826e-06,-1.40493884e-05
7.54345282e-10,1.74375778e+00,0.00000000e+00,1.80000000e+00,2.05878959e-03,2.18327581e-06,9.40241954e-06,-8.73786260e-06,-6.59766609e-06
7.65693437e-10,1.76676662e+00,0.00000000e+00,1.80000000e+00,1.17987835e-03,4.68690191e-07,-1.29226025e-06,8.42806377e-06,-7.77733094e-06
7.77041591e-10,1.78051751e+00,0.00000000e+00,1.80000000e+00,7.04832172e-04,1.13638807e-06,6.13917743e-06,-8.59550815e-06,-8.33353307e-07
7.88389745e-10,1.78854944e+00,0.00000000e+00,1.80000000e+00,3.98092498e-04,-1.93036865e-07,-3.30807874e-06,8.48738848e-06,-4.19882820e-06
8.00000000e-10,1.79342898e+00,0.00000000e+00,1.80000000e+00,2.42660178e-04,7.56079846e-07,4.98919015e-06,-8.54093850e-06,1.20540028e-06
8.00689565e-10,1.79755298e+00,2.48243387e-02,1.80000000e+00,7.81965114e-04,-5.44649410e-05,1.19611701e-05,1.56418892e-06,2.61125513e-05
8.01246074e-10,1.80088033e+00,4.48586787e-02,1.80000000e+00,1.16316479e-03,-5.45903282e-05,1.19579346e-05,1.36996658e-06,2.61971423e-05
8.02359093e-10,1.80785378e+00,8.49273589e-02,1.80000000e+00,1.87355005e-03,-5.48046194e-05,1.31034662e-05,1.18303686e-06,2.48894834e-05
8.04585131e-10,1.82074806e+00,1.65064719e-01,1.80000000e+00,2.66964818e-03,-5.46823773e-05,1.00664531e-05,2.47483562e-07,2.90161095e-05
8.09037207e-10,1.84361842e+00,3.25339440e-01,1.80000000e+00,3.05130163e-03,-5.51356563e-05,1.04815881e-05,9.54157812e-08,2.90962304e-05
8.17941358e-10,1.88527553e+00,6.45888881e-01,1.80000000e+00,2.82895376e-03,-5.72089379e-05,8.23197832e-06,-1.95300822e-07,3.15095032e-05
8.26845509e-10,1.88445568e+00,9.66438322e-01,1.80000000e+00,-3.57835552e-04,-6.48090794e-05,-8.60027563e-06,-1.23629631e-06,1.68158105e-05
8.27840884e-10,1.87737413e+00,1.00227182e+00,1.80000000e+00,-1.26096987e-03,-6.29238582e-05,-1.42289147e-05,-1.81466180e-06,1.54450680e-05
8.28836259e-10,1.86902089e+00,1.03810531e+00,1.80000000e+00,-2.24827512e-03,-6.17070998e-05,-1.93393185e-05,-2.15290996e-06,1.28163889e-05
8.30827008e-10,1.84491489e+00,1.10977229e+00,1.80000000e+00,-4.59085332e-03,-6.13164383e-05,-2.90967081e-05,-2.55401687e-06,8.86680333e-06
8.32817758e-10,1.80964211e+00,1.18143928e+00,1.80000000e+00,-7.47509088e-03,-5.54375987e-05,-4.17766416e-05,-3.24126252e-06,3.13031405e-06
8.34808507e-10,1.76467325e+00,1.25310627e+00,1.80000000e+00,-1.05247671e-02,-5.72763677e-05,-4.85789924e-05,-2.88643173e-06,-2.94123222e-06
8.36799257e-10,1.70704666e+00,1.32477325e+00,1.80000000e+00,-1.42137021e-02,-4.79082510e-05,-6.72097432e-05,-4.52572087e-06,-3.68945632e-06
8.38790007e-10,1.63882023e+00,1.39644024e+00,1.80000000e+00,-1.81737554e-02,-5.62633166e-05,-6.98771677e-05,-3.43118789e-06,-8.50681675e-06
8.40780756e-10,1.56078436e+00,1.46810723e+00,1.80000000e+00,-2.24880482e-02,-4.83951671e-05,-8.69197847e-05,-5.23749197e-06,-9.28077094e-06
8.42771506e-10,1.47332969e+00,1.53977421e+00,1.80000000e+00,-2.74267420e-02,-5.77564686e-05,-8.88023024e-05,-4.68579270e-06,-1.31644820e-05
8.44762256e-10,1.37706379e+00,1.61144120e+00,1.80000000e+00,-3.33972496e-02,-4.97095381e-05,-1.04624143e-04,-7.31070871e-06,-1.42988989e-05
8.46753005e-10,1.27290070e+00,1.68310818e+00,1.80000000e+00,-4.09846353e-02,-5.96380041e-05,-1.04670059e-04,-7.93457506e-06,-1.81139999e-05
8.48743755e-10,1.16202177e+00,1.75477517e+00,1.80000000e+00,-5.09121547e-02,-5.11944665e-05,-1.18118237e-04,-1.20127237e-05,-2.06489456e-05
8.50000000e-10,1.08904489e+00,1.80000000e+00,1.80000000e+00,-5.86559906e-02,-6.13448935e-05,-1.14246844e-04,-1.26443596e-05,-2.36431031e-05
8.50199075e-10,1.07670754e+00,1.80000000e+00,1.80000000e+00,-6.01340430e-02,-1.21976372e-05,-1.23946695e-04,-1.48492048e-05,-4.29732524e-05
8.50355156e-10,1.06706995e+00,1.80000000e+00,1.80000000e+00,-6.12965504e-02,-1.16222639e-05,-1.23494683e-04,-1.48961917e-05,-4.37116350e-05
8.50667318e-10,1.04786260e+00,1.80000000e+00,1.80000000e+00,-6.36392883e-02,-1.14671610e-05,-1.22625407e-04,-1.51232954e-05,-4.41555426e-05
8.51291643e-10,1.00975769e+00,1.80000000e+00,1.80000000e+00,-6.83783545e-02,-1.14420187e-05,-1.21509842e-04,-1.52395410e-05,-4.45297235e-05
8.52540292e-10,9.34689447e-01,1.80000000e+00,1.80000000e+00,-7.79877278e-02,-1.11668243e-05,-1.18968407e-04,-1.55437206e-05,-4.65026204e-05
8.55037590e-10,7.88424967e-01,1.80000000e+00,1.80000000e+00,-9.65475316e-02,-1.10390931e-05,-1.15307940e-04,-1.41840918e-05,-5.28477700e-05
8.60032187e-10,5.13261266e-01,1.80000000e+00,1.80000000e+00,-1.08924921e-01,-1.20792477e-05,-1.05061170e-04,4.27146824e-06,-7.56480187e-05
8.60748779e-10,4.76741650e-01,1.80000000e+00,1.80000000e+00,-1.05614632e-01,-1.32068749e-05,-1.01925853e-04,9.23898064e-06,-7.87296808e-05
8.61465371e-10,4.40839699e-01,1.80000000e+00,1.80000000e+00,-1.01225633e-01,-1.47285568e-05,-9.84780574e-05,1.52603150e-05,-8.20510353e-05
8.62898554e-10,3.73078275e-01,1.80000000e+00,1.80000000e+00,-8.66010046e-02,-1.43534731e-05,-9.06433426e-05,2.55568645e-05,-8.83460971e-05
8.64331738e-10,3.11775026e-01,1.80000000e+00,1.80000000e+00,-6.40773992e-02,-1.48399592e-05,-8.04533629e-05,3.73062743e-05,-9.32542519e-05
8.65764922e-10,2.57946526e-01,1.80000000e+00,1.80000000e+00,-3.39796590e-02,-1.27549615e-05,-6.97813978e-05,4.66961926e-05,-9.71498015e-05
