TIME,V(XTOP:S1_B),V(XTOP:X4),V(XTOP:X1),V(XTOP:S0),V(XTOP:X7),V(XTOP:S2),V(XTOP:X3),V(XTOP:XDUT:UPPER_LEFT__A1),V(XTOP:X2),V(XTOP:XDUT:LOWER_RIGHT__A0),V(XTOP:X6),V(XTOP:X0),V(XTOP:S0_B),V(XTOP:Y),V(XTOP:DUT_VPWR),V(XTOP:XDUT:UPPER_LEFT__A0),V(XTOP:X5),V(XTOP:XDUT:LOWER_RIGHT__A1),V(XTOP:XDUT:UPPER_RIGHT__A1),V(XTOP:XDUT:A1),V(XTOP:XDUT:LOWER_LEFT__A0),V(XTOP:S2_B),V(XTOP:XDUT:LOWER_LEFT__A1),V(XTOP:XDUT:A2),V(XTOP:XDUT:UPPER_RIGHT__A0),V(XTOP:S1),V(XTOP:XDUT:A0),V(XTOP:XDUT:A3),I(XTOP:VS1_DRIVER),I(XTOP:VS1_B_DRIVER),I(XTOP:VS2_DRIVER),I(XTOP:VINIT_X0),I(XTOP:VS2_B_DRIVER),I(XTOP:VPOWER),I(XTOP:VS0_B_DRIVER),I(XTOP:CFAKE_LOAD),I(XTOP:VINIT_X4),I(XTOP:VINIT_X1),I(XTOP:VS0_DRIVER),I(XTOP:VINIT_X3),I(XTOP:VINIT_X6),I(XTOP:VINIT_X5),I(XTOP:VINIT_X7),I(XTOP:VINIT_X2)
0.00000000e+00,1.80000000e+00,0.00000000e+00,1.80000000e+00,0.00000000e+00,1.80000000e+00,0.00000000e+00,1.80000000e+00,2.39533016e-08,0.00000000e+00,3.13471108e-01,0.00000000e+00,0.00000000e+00,1.80000000e+00,7.17527895e-08,1.80000000e+00,5.35588656e-11,1.80000000e+00,3.24120200e-01,3.06190095e-01,5.35586568e-11,5.35588003e-11,1.80000000e+00,5.35586709e-11,2.92042959e-01,3.13471108e-01,0.00000000e+00,4.78530451e-08,3.37408605e-01,-4.42623925e-42,-6.47886071e-44,1.52346996e-43,2.69143484e-11,-1.82967703e-43,-4.39358022e-11,-3.64706330e-42,0.00000000e+00,1.94437884e-11,-1.00289206e-11,-4.84493919e-42,-9.94191795e-12,1.50332816e-11,-9.81622692e-12,-9.94191795e-12,1.50332816e-11
2.50000000e-13,1.80000000e+00,0.00000000e+00,1.80000000e+00,0.00000000e+00,1.80000000e+00,0.00000000e+00,1.80000000e+00,2.39533016e-08,0.00000000e+00,3.13471108e-01,0.00000000e+00,0.00000000e+00,1.80000000e+00,7.17527895e-08,1.80000000e+00,5.35588449e-11,1.80000000e+00,3.24120200e-01,3.06190095e-01,5.35586593e-11,5.35588062e-11,1.80000000e+00,5.35586755e-11,2.92042959e-01,3.13471108e-01,0.00000000e+00,4.78530452e-08,3.37408605e-01,-2.06912921e-19,2.05266464e-19,-3.16021041e-20,2.69143486e-11,3.50370734e-20,-4.39358026e-11,-1.99558156e-19,3.40786157e-20,1.94437884e-11,-1.00289206e-11,-5.57740367e-20,-9.94191797e-12,1.50332815e-11,-9.81622694e-12,-9.94191797e-12,1.50332816e-11
7.50000000e-13,1.80000000e+00,0.00000000e+00,1.80000000e+00,0.00000000e+00,1.80000000e+00,0.00000000e+00,1.80000000e+00,2.39533017e-08,0.00000000e+00,3.13471108e-01,0.00000000e+00,0.00000000e+00,1.80000000e+00,7.17527895e-08,1.80000000e+00,5.35588881e-11,1.80000000e+00,3.24120200e-01,3.06190095e-01,5.35586697e-11,5.35588284e-11,1.80000000e+00,5.35586930e-11,2.92042959e-01,3.13471108e-01,0.00000000e+00,4.78530452e-08,3.37408605e-01,9.00105093e-21,5.19375886e-20,2.81105809e-19,2.69143486e-11,-3.37134586e-20,-4.39358031e-11,-1.44762916e-18,-1.73719257e-19,1.94437884e-11,-1.00289206e-11,1.81122594e-19,-9.94191796e-12,1.50332815e-11,-9.81622693e-12,-9.94191796e-12,1.50332819e-11
1.75000000e-12,1.80000000e+00,0.00000000e+00,1.80000000e+00,0.00000000e+00,1.80000000e+00,0.00000000e+00,1.80000000e+00,2.39533016e-08,0.00000000e+00,3.13471108e-01,0.00000000e+00,0.00000000e+00,1.80000000e+00,7.17527894e-08,1.80000000e+00,5.35587453e-11,1.80000000e+00,3.24120200e-01,3.06190095e-01,5.35587115e-11,5.35588160e-11,1.80000000e+00,5.35587606e-11,2.92042959e-01,3.13471108e-01,0.00000000e+00,4.78530451e-08,3.37408605e-01,-1.77615473e-19,3.50567470e-19,1.75490938e-19,2.69143489e-11,7.62126309e-20,-4.39358018e-11,6.16131454e-19,-1.29442711e-19,1.94437884e-11,-1.00289206e-11,-6.14130315e-19,-9.94191796e-12,1.50332818e-11,-9.81622693e-12,-9.94191796e-12,1.50332814e-11
3.75000000e-12,1.80000000e+00,0.00000000e+00,1.80000000e+00,0.00000000e+00,1.80000000e+00,0.00000000e+00,1.80000000e+00,2.39533018e-08,0.00000000e+00,3.13471108e-01,0.00000000e+00,0.00000000e+00,1.80000000e+00,7.17527895e-08,1.80000000e+00,5.35587018e-11,1.80000000e+00,3.24120200e-01,3.06190095e-01,5.35588810e-11,5.35587133e-11,1.80000000e+00,5.35587419e-11,2.92042959e-01,3.13471108e-01,0.00000000e+00,4.78530453e-08,3.37408605e-01,8.27743970e-19,-3.63117775e-19,2.76107943e-19,2.69143487e-11,2.56665378e-19,-4.39358048e-11,3.36382850e-19,3.24639731e-19,1.94437879e-11,-1.00289206e-11,1.44991271e-18,-9.94191800e-12,1.50332814e-11,-9.81622691e-12,-9.94191795e-12,1.50332817e-11
7.75000000e-12,1.80000000e+00,0.00000000e+00,1.80000000e+00,0.00000000e+00,1.80000000e+00,0.00000000e+00,1.80000000e+00,2.39533015e-08,0.00000000e+00,3.13471108e-01,0.00000000e+00,0.00000000e+00,1.80000000e+00,7.17527896e-08,1.80000000e+00,5.35587332e-11,1.80000000e+00,3.24120200e-01,3.06190095e-01,5.35586923e-11,5.35587719e-11,1.80000000e+00,5.35587382e-11,2.92042959e-01,3.13471108e-01,0.00000000e+00,4.78530452e-08,3.37408605e-01,-1.12573465e-18,5.14459744e-19,-1.64739365e-19,2.69143487e-11,-2.40811955e-19,-4.39358015e-11,-4.72084082e-20,-2.05462307e-19,1.94437885e-11,-1.00289207e-11,-1.67797663e-18,-9.94191788e-12,1.50332819e-11,-9.81622693e-12,-9.94191796e-12,1.50332816e-11
1.27500000e-11,1.80000000e+00,0.00000000e+00,1.80000000e+00,0.00000000e+00,1.80000000e+00,0.00000000e+00,1.80000000e+00,2.39533018e-08,0.00000000e+00,3.13471108e-01,0.00000000e+00,0.00000000e+00,1.80000000e+00,7.17527896e-08,1.80000000e+00,5.35587605e-11,1.80000000e+00,3.24120200e-01,3.06190095e-01,5.35590682e-11,5.35586878e-11,1.80000000e+00,5.35589573e-11,2.92042959e-01,3.13471108e-01,0.00000000e+00,4.78530454e-08,3.37408605e-01,1.51096149e-18,-6.49106031e-19,1.91909943e-19,2.69143487e-11,2.83616872e-19,-4.39358042e-11,3.77799107e-19,2.35437460e-19,1.94437883e-11,-1.00289206e-11,1.34231204e-18,-9.94191803e-12,1.50332812e-11,-9.81622690e-12,-9.94191795e-12,1.50332815e-11
1.77500000e-11,1.80000000e+00,0.00000000e+00,1.80000000e+00,0.00000000e+00,1.80000000e+00,0.00000000e+00,1.80000000e+00,2.39533017e-08,0.00000000e+00,3.13471108e-01,0.00000000e+00,0.00000000e+00,1.80000000e+00,7.17527897e-08,1.80000000e+00,5.35588520e-11,1.80000000e+00,3.24120200e-01,3.06190095e-01,5.35587367e-11,5.35587538e-11,1.80000000e+00,5.35586365e-11,2.92042959e-01,3.13471108e-01,0.00000000e+00,4.78530454e-08,3.37408605e-01,-1.81579024e-18,8.20043849e-19,-7.60470594e-22,2.69143487e-11,-3.73884404e-19,-4.39358020e-11,-6.25144343e-19,-1.60412116e-19,1.94437885e-11,-1.00289207e-11,-1.35814774e-18,-9.94191788e-12,1.50332821e-11,-9.81622696e-12,-9.94191796e-12,1.50332818e-11
2.27500000e-11,1.80000000e+00,0.00000000e+00,1.80000000e+00,0.00000000e+00,1.80000000e+00,0.00000000e+00,1.80000000e+00,2.39533018e-08,0.00000000e+00,3.13471108e-01,0.00000000e+00,0.00000000e+00,1.80000000e+00,7.17527899e-08,1.80000000e+00,5.35587778e-11,1.80000000e+00,3.24120200e-01,3.06190095e-01,5.35590581e-11,5.35587434e-11,1.80000000e+00,5.35590037e-11,2.92042959e-01,3.13471108e-01,0.00000000e+00,4.78530453e-08,3.37408605e-01,1.78389677e-18,-9.21778977e-19,5.09550596e-20,2.69143486e-11,4.43549698e-19,-4.39358039e-11,8.01685789e-19,2.93784250e-19,1.94437883e-11,-1.00289206e-11,1.17398395e-18,-9.94191803e-12,1.50332812e-11,-9.81622689e-12,-9.94191797e-12,1.50332817e-11
2.77500000e-11,1.80000000e+00,0.00000000e+00,1.80000000e+00,0.00000000e+00,1.80000000e+00,0.00000000e+00,1.80000000e+00,2.39533016e-08,0.00000000e+00,3.13471108e-01,0.00000000e+00,0.00000000e+00,1.80000000e+00,7.17527897e-08,1.80000000e+00,5.35587285e-11,1.80000000e+00,3.24120200e-01,3.06190095e-01,5.35588329e-11,5.35587537e-11,1.80000000e+00,5.35587856e-11,2.92042959e-01,3.13471108e-01,0.00000000e+00,4.78530454e-08,3.37408605e-01,-2.04435990e-18,1.13494444e-18,1.74906239e-19,2.69143487e-11,-5.70822471e-19,-4.39358011e-11,-1.18562441e-18,-4.57709900e-19,1.94437886e-11,-1.00289207e-11,-1.34202117e-18,-9.94191788e-12,1.50332818e-11,-9.81622696e-12,-9.94191795e-12,1.50332814e-11
3.27500000e-11,1.80000000e+00,0.00000000e+00,1.80000000e+00,0.00000000e+00,1.80000000e+00,0.00000000e+00,1.80000000e+00,2.39533017e-08,0.00000000e+00,3.13471108e-01,0.00000000e+00,0.00000000e+00,1.80000000e+00,7.17527898e-08,1.80000000e+00,5.35587590e-11,1.80000000e+00,3.24120200e-01,3.06190095e-01,5.35587349e-11,5.35588294e-11,1.80000000e+00,5.35587314e-11,2.92042959e-01,3.13471108e-01,0.00000000e+00,4.78530451e-08,3.37408605e-01,1.79654405e-18,-9.48888484e-19,-1.33595134e-19,2.69143484e-11,6.28311984e-19,-4.39358049e-11,1.37075356e-18,5.63113328e-19,1.94437880e-11,-1.00289206e-11,5.66043331e-19,-9.94191805e-12,1.50332815e-11,-9.81622687e-12,-9.94191796e-12,1.50332820e-11
3.77500000e-11,1.80000000e+00,0.00000000e+00,1.80000000e+00,0.00000000e+00,1.80000000e+00,0.00000000e+00,1.80000000e+00,2.39533016e-08,0.00000000e+00,3.13471108e-01,0.00000000e+00,0.00000000e+00,1.80000000e+00,7.17527897e-08,1.80000000e+00,5.35587274e-11,1.80000000e+00,3.24120200e-01,3.06190095e-01,5.35587516e-11,5.35587317e-11,1.80000000e+00,5.35588110e-11,2.92042959e-01,3.13471108e-01,0.00000000e+00,4.78530454e-08,3.37408605e-01,-2.19346386e-18,9.76341628e-19,6.82261427e-20,2.69143489e-11,-3.66781601e-19,-4.39358007e-11,-1.37567695e-18,-7.01681016e-19,1.94437887e-11,-1.00289207e-11,-7.16241213e-19,-9.94191784e-12,1.50332817e-11,-9.81622698e-12,-9.94191795e-12,1.50332811e-11
4.27500000e-11,1.80000000e+00,0.00000000e+00,1.80000000e+00,0.00000000e+00,1.80000000e+00,0.00000000e+00,1.80000000e+00,2.39533017e-08,0.00000000e+00,3.13471108e-01,0.00000000e+00,0.00000000e+00,1.80000000e+00,7.17527900e-08,1.80000000e+00,5.35587708e-11,1.80000000e+00,3.24120200e-01,3.06190095e-01,5.35588290e-11,5.35587728e-11,1.80000000e+00,5.35587477e-11,2.92042959e-01,3.13471108e-01,0.00000000e+00,4.78530454e-08,3.37408605e-01,1.90564828e-18,-8.43813384e-19,1.37560691e-20,2.69143484e-11,3.88407613e-19,-4.39358055e-11,1.50856009e-18,9.71825369e-19,1.94437879e-11,-1.00289205e-11,2.46466379e-19,-9.94191807e-12,1.50332817e-11,-9.81622687e-12,-9.94191796e-12,1.50332824e-11
4.77500000e-11,1.80000000e+00,0.00000000e+00,1.80000000e+00,0.00000000e+00,1.80000000e+00,0.00000000e+00,1.80000000e+00,2.39533018e-08,0.00000000e+00,3.13471108e-01,0.00000000e+00,0.00000000e+00,1.80000000e+00,7.17527898e-08,1.80000000e+00,5.35587501e-11,1.80000000e+00,3.24120200e-01,3.06190095e-01,5.35587092e-11,5.35587703e-11,1.80000000e+00,5.35586123e-11,2.92042959e-01,3.13471108e-01,0.00000000e+00,4.78530455e-08,3.37408605e-01,-1.88373830e-18,1.07912397e-18,6.36696099e-21,2.69143490e-11,-3.75409123e-19,-4.39357999e-11,-1.59267554e-18,-1.10673840e-18,1.94437888e-11,-1.00289207e-11,-5.47223315e-19,-9.94191784e-12,1.50332814e-11,-9.81622698e-12,-9.94191795e-12,1.50332806e-11
5.00000000e-11,1.80000000e+00,0.00000000e+00,1.80000000e+00,0.00000000e+00,1.80000000e+00,0.00000000e+00,1.80000000e+00,2.39533018e-08,0.00000000e+00,3.13471108e-01,0.00000000e+00,0.00000000e+00,1.80000000e+00,7.17527898e-08,1.80000000e+00,5.35588354e-11,1.80000000e+00,3.24120200e-01,3.06190095e-01,5.35588385e-11,5.35588015e-11,1.80000000e+00,5.35587415e-11,2.92042959e-01,3.13471108e-01,0.00000000e+00,4.78530454e-08,3.37408605e-01,1.44402046e-18,-1.33921292e-18,-7.59408942e-20,2.69143483e-11,3.33176855e-19,-4.39358044e-11,1.63017443e-18,9.95971116e-19,1.94437877e-11,-1.00289205e-11,1.68017508e-19,-9.94191812e-12,1.50332818e-11,-9.81622683e-12,-9.94191792e-12,1.50332825e-11
5.03277223e-11,1.78820200e+00,0.00000000e+00,1.80000000e+00,1.17980023e-02,1.80000000e+00,1.17980023e-02,1.80000000e+00,-5.94754609e-03,0.00000000e+00,3.12060627e-01,0.00000000e+00,0.00000000e+00,1.78820200e+00,-1.42125388e-03,1.80000000e+00,-1.88984074e-03,1.80000000e+00,3.25995554e-01,3.08057413e-01,-2.62571781e-03,-1.87621182e-03,1.78820200e+00,-5.92118722e-03,2.94029950e-01,3.12061416e-01,1.17980023e-02,-5.96260638e-03,3.36161784e-01,-5.89946492e-05,6.53221383e-05,-2.88716547e-05,-1.66267081e-05,3.59073918e-05,-2.76799585e-05,1.62133349e-04,-8.67396385e-06,-1.65894641e-05,2.35598332e-06,-1.15940014e-04,2.33175352e-06,-1.38392775e-05,2.35761314e-06,2.33168843e-06,-1.38484601e-05
5.06226723e-11,1.77758380e+00,0.00000000e+00,1.80000000e+00,2.24162043e-02,1.80000000e+00,2.24162043e-02,1.80000000e+00,-1.05950074e-02,0.00000000e+00,3.10801663e-01,0.00000000e+00,0.00000000e+00,1.77758380e+00,-2.88507394e-03,1.80000000e+00,-3.29053083e-03,1.80000000e+00,3.27631938e-01,3.09698131e-01,-5.22703838e-03,-3.27470429e-03,1.77758380e+00,-1.01361787e-02,2.95791108e-01,3.10802469e-01,2.24162043e-02,-1.07576598e-02,3.35057518e-01,-5.90280468e-05,6.84118300e-05,-2.92855214e-05,-1.93037543e-05,3.65339849e-05,-2.86888823e-05,1.65887742e-04,-9.92588424e-06,-1.89784074e-05,2.37629343e-06,-1.15743535e-04,2.35001612e-06,-1.46669698e-05,2.37547421e-06,2.34999521e-06,-1.46765017e-05
5.12125725e-11,1.75634739e+00,0.00000000e+00,1.80000000e+00,4.36526084e-02,1.80000000e+00,4.36526084e-02,1.80000000e+00,-1.87407489e-02,0.00000000e+00,3.08194340e-01,0.00000000e+00,0.00000000e+00,1.75634739e+00,-6.10685261e-03,1.80000000e+00,-5.58483462e-03,1.80000000e+00,3.30780644e-01,3.12896888e-01,-1.05997937e-02,-5.57498314e-03,1.75634739e+00,-1.70350189e-02,2.99271368e-01,3.08195156e-01,4.36526084e-02,-1.94121560e-02,3.32781246e-01,-5.81769799e-05,7.22204220e-05,-2.94596911e-05,-2.38507171e-05,3.69964811e-05,-2.77178053e-05,1.69697507e-04,-1.19203816e-05,-2.27798453e-05,2.33516997e-06,-1.13922904e-04,2.29727729e-06,-1.59692313e-05,2.32946160e-06,2.29732004e-06,-1.59742434e-05
5.23923727e-11,1.71387458e+00,0.00000000e+00,1.80000000e+00,8.61254167e-02,1.80000000e+00,8.61254167e-02,1.80000000e+00,-3.01597458e-02,0.00000000e+00,3.02617074e-01,0.00000000e+00,0.00000000e+00,1.71387458e+00,-1.37134786e-02,1.80000000e+00,-8.13562552e-03,1.80000000e+00,3.37045572e-01,3.18961170e-01,-2.09476576e-02,-8.14754865e-03,1.71387458e+00,-2.57286402e-02,3.06082696e-01,3.02617842e-01,8.61254167e-02,-3.26906811e-02,3.28379158e-01,-5.72263465e-05,7.64910670e-05,-2.94290424e-05,-2.99095606e-05,3.76597620e-05,-2.64676140e-05,1.73194173e-04,-1.38691573e-05,-2.73567085e-05,2.26831322e-06,-1.12246359e-04,2.21863433e-06,-1.73095793e-05,2.25941822e-06,2.21868496e-06,-1.73026169e-05
5.47519731e-11,1.62892897e+00,0.00000000e+00,1.80000000e+00,1.71071033e-01,1.80000000e+00,1.71071033e-01,1.80000000e+00,-4.38584993e-02,0.00000000e+00,2.89926848e-01,0.00000000e+00,0.00000000e+00,1.62892897e+00,-3.02091667e-02,1.80000000e+00,-9.84300066e-03,1.80000000e+00,3.47957278e-01,3.29659571e-01,-3.64885518e-02,-9.89011601e-03,1.62892897e+00,-3.66389796e-02,3.19242549e-01,2.89927693e-01,1.71071033e-01,-5.12492905e-02,3.18710234e-01,-5.60693356e-05,7.98151632e-05,-2.90893793e-05,-3.61204564e-05,3.81945260e-05,-2.30169194e-05,1.75389676e-04,-1.40943703e-05,-3.22603784e-05,2.06683723e-06,-1.11046485e-04,1.95121509e-06,-1.79738814e-05,2.04985133e-06,1.95136036e-06,-1.79483201e-05
5.71115736e-11,1.54398335e+00,0.00000000e+00,1.80000000e+00,2.56016650e-01,1.80000000e+00,2.56016650e-01,1.80000000e+00,-5.27137829e-02,0.00000000e+00,2.74614506e-01,0.00000000e+00,0.00000000e+00,1.54398335e+00,-4.59550572e-02,1.80000000e+00,-9.90567159e-03,1.80000000e+00,3.56378898e-01,3.37972053e-01,-4.64239587e-02,-1.00308579e-02,1.54398335e+00,-4.41944381e-02,3.31947756e-01,2.74615284e-01,2.56016650e-01,-6.50137682e-02,3.08554779e-01,-5.66557242e-05,8.07311943e-05,-2.92949248e-05,-3.89405280e-05,3.85667651e-05,-2.00407841e-05,1.77162546e-04,-1.25980988e-05,-3.46779719e-05,1.78389427e-06,-1.11709423e-04,1.53160423e-06,-1.76571702e-05,1.74628272e-06,1.53238546e-06,-1.75941738e-05
6.18307745e-11,1.37409212e+00,0.00000000e+00,1.80000000e+00,4.25907882e-01,1.80000000e+00,4.25907882e-01,1.80000000e+00,-6.66685453e-02,0.00000000e+00,2.30325843e-01,0.00000000e+00,0.00000000e+00,1.37409212e+00,-7.18669550e-02,1.80000000e+00,-7.50825867e-03,1.80000000e+00,3.61414007e-01,3.42783097e-01,-5.47185085e-02,-8.21405817e-03,1.37409212e+00,-5.25702759e-02,3.56384810e-01,2.30326674e-01,4.25907882e-01,-8.67700131e-02,2.87412433e-01,-6.00055078e-05,8.14324952e-05,-3.05865103e-05,-4.05780656e-05,3.90273477e-05,-1.36711863e-05,1.84516309e-04,-9.36485487e-06,-3.45648298e-05,9.51125082e-07,-1.16751743e-04,9.98640019e-08,-1.60362390e-05,7.55209309e-07,1.09321211e-07,-1.57413558e-05
6.65499754e-11,1.20420088e+00,0.00000000e+00,1.80000000e+00,5.95799115e-01,1.80000000e+00,5.95799115e-01,1.80000000e+00,-7.49846213e-02,0.00000000e+00,1.55624072e-01,0.00000000e+00,0.00000000e+00,1.20420088e+00,-8.82631158e-02,1.80000000e+00,6.97572385e-04,1.80000000e+00,3.40628438e-01,3.21604472e-01,-4.81521439e-02,1.90073220e-05,1.20420088e+00,-5.33650621e-02,3.79661323e-01,1.55624737e-01,5.95799115e-01,-1.00320012e-01,2.65282789e-01,-6.92165215e-05,8.25260313e-05,-3.61318785e-05,-3.72576218e-05,4.02074177e-05,-8.37454020e-06,2.02908871e-04,-4.53254945e-06,-2.98860602e-05,-2.62210809e-06,-1.31442137e-04,-2.93620790e-06,-1.24882879e-05,-2.42391473e-06,-2.93715374e-06,-1.23397051e-05
7.12691763e-11,1.03430965e+00,0.00000000e+00,1.80000000e+00,7.65690348e-01,1.80000000e+00,7.65690348e-01,1.80000000e+00,-7.00083140e-02,0.00000000e+00,5.75615448e-02,0.00000000e+00,0.00000000e+00,1.03430965e+00,-9.32439340e-02,1.80000000e+00,9.92100884e-03,1.80000000e+00,2.98535795e-01,2.79247714e-01,-3.30028975e-02,1.68291921e-02,1.03430965e+00,-4.33737848e-02,4.01965973e-01,5.75616487e-02,7.65690348e-01,-1.01383181e-01,2.42376374e-01,-7.31974555e-05,8.46004931e-05,-3.71162950e-05,-2.82198450e-05,4.15788271e-05,-4.27817343e-08,2.19559871e-04,3.10802387e-07,-2.17783712e-05,-1.90139599e-05,-1.39090046e-04,-1.06857750e-05,-1.03119317e-05,-1.53896199e-05,-1.06174444e-05,-1.10246859e-05
7.59883773e-11,8.64418419e-01,0.00000000e+00,1.80000000e+00,9.35581581e-01,1.80000000e+00,9.35581581e-01,1.80000000e+00,-3.68282144e-02,0.00000000e+00,-1.76713654e-04,0.00000000e+00,0.00000000e+00,8.64418419e-01,-8.37670719e-02,1.80000000e+00,3.11368805e-02,1.80000000e+00,2.85919732e-01,2.67019241e-01,-1.21857673e-02,5.35063237e-02,8.64418419e-01,-1.06003401e-02,4.23472010e-01,-1.80043347e-04,9.35581581e-01,-8.33117331e-02,2.18847152e-01,-7.03980777e-05,9.06935480e-05,-3.74830810e-05,-1.56438531e-05,4.37328605e-05,1.80381799e-05,2.32880886e-04,7.72179651e-06,-1.25523286e-05,-4.66368842e-05,-1.30226501e-04,-3.34178659e-05,-8.45117650e-06,-4.08401205e-05,-3.03159350e-05,-9.74488004e-06
7.66222524e-11,8.41598912e-01,0.00000000e+00,1.80000000e+00,9.58401088e-01,1.80000000e+00,9.58401088e-01,1.80000000e+00,-2.88945037e-02,0.00000000e+00,8.86526432e-04,0.00000000e+00,0.00000000e+00,8.41598912e-01,-8.12146641e-02,1.80000000e+00,3.62301207e-02,1.80000000e+00,2.91118538e-01,2.72351425e-01,-9.03866392e-03,6.11505388e-02,8.41598912e-01,-3.46367782e-03,4.26303708e-01,8.82220114e-04,9.58401088e-01,-7.92712725e-02,2.15641955e-01,-6.89352222e-05,9.11274542e-05,-3.70023695e-05,-1.40050161e-05,4.36646141e-05,2.13057231e-05,2.31733417e-04,8.05334506e-06,-1.14124310e-05,-5.03555336e-05,-1.27053598e-04,-3.71842513e-05,-8.82249758e-06,-4.44626662e-05,-3.34433863e-05,-9.97498417e-06
7.72561276e-11,8.18779405e-01,0.00000000e+00,1.80000000e+00,9.81220595e-01,1.80000000e+00,9.81220595e-01,1.80000000e+00,-2.02129391e-02,0.00000000e+00,3.29060088e-03,0.00000000e+00,0.00000000e+00,8.18779405e-01,-7.85238648e-02,1.80000000e+00,4.18789083e-02,1.80000000e+00,2.97373305e-01,2.78749664e-01,-5.61758481e-03,6.94640621e-02,8.18779405e-01,3.78255534e-03,4.29122210e-01,3.28504770e-03,9.81220595e-01,-7.49535321e-02,2.12426865e-01,-6.73488028e-05,9.09746244e-05,-3.67924598e-05,-1.23058174e-05,4.35898004e-05,2.53596560e-05,2.31542539e-04,8.92664904e-06,-1.25779970e-05,-5.43427185e-05,-1.24208224e-04,-4.13519021e-05,-8.41637929e-06,-4.82824140e-05,-3.69814333e-05,-9.69228403e-06
