TIME,V(XTOP:S1_B),V(XTOP:X4),V(XTOP:X1),V(XTOP:S0),V(XTOP:X7),V(XTOP:S2),V(XTOP:X3),V(XTOP:XDUT:UPPER_LEFT__A1),V(XTOP:X2),V(XTOP:DUT_VPB),V(XTOP:XDUT:A1),V(XTOP:XDUT:UPPER_RIGHT__A1),V(XTOP:XDUT:A3),V(XTOP:XDUT:A0),V(XTOP:XDUT:UPPER_LEFT__A0),V(XTOP:X5),V(XTOP:XDUT:LOWER_RIGHT__A1),V(XTOP:XDUT:LOWER_LEFT__A0),V(XTOP:S2_B),V(XTOP:XDUT:LOWER_LEFT__A1),V(XTOP:XDUT:A2),V(XTOP:XDUT:UPPER_RIGHT__A0),V(XTOP:S1),V(XTOP:Z),V(XTOP:S0_B),V(XTOP:X0),V(XTOP:XDUT:LOWER_RIGHT__A0),V(XTOP:X6),I(XTOP:VS1_DRIVER),I(XTOP:VS1_B_DRIVER),I(XTOP:VS2_DRIVER),I(XTOP:VINIT_X0),I(XTOP:VS2_B_DRIVER),I(XTOP:VPOWER),I(XTOP:VS0_B_DRIVER),I(XTOP:CFAKE_LOAD),I(XTOP:VINIT_X4),I(XTOP:VINIT_X1),I(XTOP:VS0_DRIVER),I(XTOP:VINIT_X3),I(XTOP:VINIT_X6),I(XTOP:VINIT_X5),I(XTOP:VINIT_X7),I(XTOP:VINIT_X2)
0.00000000e+00,1.80000000e+00,0.00000000e+00,1.80000000e+00,0.00000000e+00,1.80000000e+00,0.00000000e+00,1.80000000e+00,2.39533016e-08,0.00000000e+00,1.80000000e+00,5.35586568e-11,3.06190095e-01,3.37408605e-01,4.78530451e-08,5.35588656e-11,1.80000000e+00,3.24120200e-01,5.35588003e-11,1.80000000e+00,5.35586709e-11,2.92042959e-01,3.13471108e-01,0.00000000e+00,7.17527895e-08,1.80000000e+00,0.00000000e+00,3.13471108e-01,0.00000000e+00,-4.42623925e-42,-6.47886071e-44,1.52346996e-43,2.69143484e-11,-1.82967703e-43,-4.39358022e-11,-3.64706330e-42,0.00000000e+00,1.94437884e-11,-1.00289206e-11,-4.84493919e-42,-9.94191795e-12,1.50332816e-11,-9.81622692e-12,-9.94191795e-12,1.50332816e-11
2.50000000e-13,1.80000000e+00,0.00000000e+00,1.80000000e+00,0.00000000e+00,1.80000000e+00,0.00000000e+00,1.80000000e+00,2.39533016e-08,0.00000000e+00,1.80000000e+00,5.35586593e-11,3.06190095e-01,3.37408605e-01,4.78530452e-08,5.35588449e-11,1.80000000e+00,3.24120200e-01,5.35588062e-11,1.80000000e+00,5.35586755e-11,2.92042959e-01,3.13471108e-01,0.00000000e+00,7.17527895e-08,1.80000000e+00,0.00000000e+00,3.13471108e-01,0.00000000e+00,-2.06914853e-19,2.05260193e-19,-3.14925948e-20,2.69143486e-11,3.53168443e-20,-4.39358026e-11,-1.99557998e-19,3.33076795e-20,1.94437884e-11,-1.00289206e-11,-5.57739889e-20,-9.94191797e-12,1.50332815e-11,-9.81622694e-12,-9.94191797e-12,1.50332816e-11
7.50000000e-13,1.80000000e+00,0.00000000e+00,1.80000000e+00,0.00000000e+00,1.80000000e+00,0.00000000e+00,1.80000000e+00,2.39533017e-08,0.00000000e+00,1.80000000e+00,5.35586696e-11,3.06190095e-01,3.37408605e-01,4.78530452e-08,5.35588880e-11,1.80000000e+00,3.24120200e-01,5.35588284e-11,1.80000000e+00,5.35586930e-11,2.92042959e-01,3.13471108e-01,0.00000000e+00,7.17527895e-08,1.80000000e+00,0.00000000e+00,3.13471108e-01,0.00000000e+00,9.88995698e-21,5.49194957e-20,3.01334871e-19,2.69143486e-11,2.13757002e-20,-4.39358031e-11,-1.44746255e-18,6.14168997e-20,1.94437884e-11,-1.00289206e-11,1.81173115e-19,-9.94191796e-12,1.50332815e-11,-9.81622693e-12,-9.94191796e-12,1.50332819e-11
1.75000000e-12,1.80000000e+00,0.00000000e+00,1.80000000e+00,0.00000000e+00,1.80000000e+00,0.00000000e+00,1.80000000e+00,2.39533016e-08,0.00000000e+00,1.80000000e+00,5.35587111e-11,3.06190095e-01,3.37408605e-01,4.78530452e-08,5.35587450e-11,1.80000000e+00,3.24120200e-01,5.35588160e-11,1.80000000e+00,5.35587606e-11,2.92042959e-01,3.13471108e-01,0.00000000e+00,7.17527896e-08,1.80000000e+00,0.00000000e+00,3.13471108e-01,0.00000000e+00,2.42131101e-19,4.36254043e-19,1.18621889e-19,2.69143489e-11,8.37314312e-22,-4.39358015e-11,6.20930712e-19,1.38947476e-19,1.94437884e-11,-1.00289206e-11,-6.12673652e-19,-9.94191796e-12,1.50332818e-11,-9.81622693e-12,-9.94191796e-12,1.50332814e-11
3.75000000e-12,1.80000000e+00,0.00000000e+00,1.80000000e+00,0.00000000e+00,1.80000000e+00,0.00000000e+00,1.80000000e+00,2.39533016e-08,0.00000000e+00,1.80000000e+00,5.35588810e-11,3.06190095e-01,3.37408605e-01,4.78530452e-08,5.35587019e-11,1.80000000e+00,3.24120200e-01,5.35587133e-11,1.80000000e+00,5.35587420e-11,2.92042959e-01,3.13471108e-01,0.00000000e+00,7.17527895e-08,1.80000000e+00,0.00000000e+00,3.13471108e-01,0.00000000e+00,3.12759683e-19,-3.60872326e-20,2.54624436e-19,2.69143483e-11,2.71646639e-19,-4.39358047e-11,2.50258438e-19,-2.85187178e-19,1.94437879e-11,-1.00289206e-11,1.42375776e-18,-9.94191800e-12,1.50332814e-11,-9.81622691e-12,-9.94191795e-12,1.50332817e-11
7.75000000e-12,1.80000000e+00,0.00000000e+00,1.80000000e+00,0.00000000e+00,1.80000000e+00,0.00000000e+00,1.80000000e+00,2.39533018e-08,0.00000000e+00,1.80000000e+00,5.35586928e-11,3.06190095e-01,3.37408605e-01,4.78530454e-08,5.35587329e-11,1.80000000e+00,3.24120200e-01,5.35587718e-11,1.80000000e+00,5.35587386e-11,2.92042959e-01,3.13471108e-01,0.00000000e+00,7.17527897e-08,1.80000000e+00,0.00000000e+00,3.13471108e-01,0.00000000e+00,-5.55738081e-19,4.39482566e-19,-1.55152345e-19,2.69143489e-11,-9.94095232e-20,-4.39358016e-11,2.77270103e-19,4.97470843e-19,1.94437885e-11,-1.00289207e-11,-1.57972565e-18,-9.94191788e-12,1.50332819e-11,-9.81622693e-12,-9.94191796e-12,1.50332816e-11
1.27500000e-11,1.80000000e+00,0.00000000e+00,1.80000000e+00,0.00000000e+00,1.80000000e+00,0.00000000e+00,1.80000000e+00,2.39533018e-08,0.00000000e+00,1.80000000e+00,5.35591215e-11,3.06190095e-01,3.37408605e-01,4.78530454e-08,5.35587612e-11,1.80000000e+00,3.24120200e-01,5.35586879e-11,1.80000000e+00,5.35589757e-11,2.92042959e-01,3.13471108e-01,0.00000000e+00,7.17527900e-08,1.80000000e+00,0.00000000e+00,3.13471108e-01,0.00000000e+00,8.60196889e-19,-2.91903166e-19,5.93667456e-20,2.69143484e-11,2.54612701e-19,-4.39358046e-11,-1.82435978e-19,-3.21527570e-19,1.94437883e-11,-1.00289206e-11,1.49497564e-18,-9.94191803e-12,1.50332812e-11,-9.81622690e-12,-9.94191795e-12,1.50332815e-11
1.77500000e-11,1.80000000e+00,0.00000000e+00,1.80000000e+00,0.00000000e+00,1.80000000e+00,0.00000000e+00,1.80000000e+00,2.39533017e-08,0.00000000e+00,1.80000000e+00,5.35590806e-11,3.06190095e-01,3.37408605e-01,4.78530454e-08,5.35588530e-11,1.80000000e+00,3.24120200e-01,5.35587538e-11,1.80000000e+00,5.35588743e-11,2.92042959e-01,3.13471108e-01,0.00000000e+00,7.17527899e-08,1.80000000e+00,0.00000000e+00,3.13471108e-01,0.00000000e+00,-1.01349117e-18,4.01543724e-19,-7.14409081e-20,2.69143489e-11,-2.74365109e-19,-4.39358013e-11,8.09957868e-20,2.48701237e-19,1.94437886e-11,-1.00289207e-11,-1.48961430e-18,-9.94191788e-12,1.50332821e-11,-9.81622696e-12,-9.94191796e-12,1.50332818e-11
2.27500000e-11,1.80000000e+00,0.00000000e+00,1.80000000e+00,0.00000000e+00,1.80000000e+00,0.00000000e+00,1.80000000e+00,2.39533018e-08,0.00000000e+00,1.80000000e+00,5.35588051e-11,3.06190095e-01,3.37408605e-01,4.78530453e-08,5.35587795e-11,1.80000000e+00,3.24120200e-01,5.35587414e-11,1.80000000e+00,5.35587634e-11,2.92042959e-01,3.13471108e-01,0.00000000e+00,7.17527897e-08,1.80000000e+00,0.00000000e+00,3.13471108e-01,0.00000000e+00,5.90376738e-19,-4.64061516e-19,1.94006757e-19,2.69143485e-11,1.82138895e-19,-4.39358044e-11,1.43140458e-20,-3.42903060e-19,1.94437884e-11,-1.00289206e-11,1.05942405e-18,-9.94191802e-12,1.50332812e-11,-9.81622689e-12,-9.94191797e-12,1.50332816e-11
2.77500000e-11,1.80000000e+00,0.00000000e+00,1.80000000e+00,0.00000000e+00,1.80000000e+00,0.00000000e+00,1.80000000e+00,2.39533016e-08,0.00000000e+00,1.80000000e+00,5.35586896e-11,3.06190095e-01,3.37408605e-01,4.78530454e-08,5.35587307e-11,1.80000000e+00,3.24120200e-01,5.35587473e-11,1.80000000e+00,5.35587002e-11,2.92042959e-01,3.13471108e-01,0.00000000e+00,7.17527899e-08,1.80000000e+00,0.00000000e+00,3.13471108e-01,0.00000000e+00,-7.50964900e-19,3.02609946e-19,-1.70116965e-19,2.69143489e-11,-2.50987591e-19,-4.39358007e-11,-1.05982874e-19,4.65811310e-19,1.94437883e-11,-1.00289207e-11,-1.41502287e-18,-9.94191789e-12,1.50332818e-11,-9.81622696e-12,-9.94191796e-12,1.50332815e-11
3.27500000e-11,1.80000000e+00,0.00000000e+00,1.80000000e+00,0.00000000e+00,1.80000000e+00,0.00000000e+00,1.80000000e+00,2.39533018e-08,0.00000000e+00,1.80000000e+00,5.35587456e-11,3.06190095e-01,3.37408605e-01,4.78530453e-08,5.35588000e-11,1.80000000e+00,3.24120200e-01,5.35588176e-11,1.80000000e+00,5.35587218e-11,2.92042959e-01,3.13471108e-01,0.00000000e+00,7.17527899e-08,1.80000000e+00,0.00000000e+00,3.13471108e-01,0.00000000e+00,4.26950631e-19,5.43941173e-21,2.19712577e-19,2.69143484e-11,2.34440311e-19,-4.39358053e-11,2.03870314e-19,-4.92918671e-19,1.94437884e-11,-1.00289206e-11,9.76643644e-19,-9.94191804e-12,1.50332815e-11,-9.81622687e-12,-9.94191795e-12,1.50332819e-11
3.77500000e-11,1.80000000e+00,0.00000000e+00,1.80000000e+00,0.00000000e+00,1.80000000e+00,0.00000000e+00,1.80000000e+00,2.39533017e-08,0.00000000e+00,1.80000000e+00,5.35589369e-11,3.06190095e-01,3.37408605e-01,4.78530453e-08,5.35588269e-11,1.80000000e+00,3.24120200e-01,5.35587688e-11,1.80000000e+00,5.35588367e-11,2.92042959e-01,3.13471108e-01,0.00000000e+00,7.17527896e-08,1.80000000e+00,0.00000000e+00,3.13471108e-01,0.00000000e+00,-5.53881264e-19,1.15790274e-19,-2.42572742e-19,2.69143490e-11,-2.60308758e-19,-4.39358003e-11,-5.66613840e-20,2.82507364e-19,1.94437883e-11,-1.00289207e-11,-1.02245210e-18,-9.94191787e-12,1.50332815e-11,-9.81622700e-12,-9.94191797e-12,1.50332812e-11
4.27500000e-11,1.80000000e+00,0.00000000e+00,1.80000000e+00,0.00000000e+00,1.80000000e+00,0.00000000e+00,1.80000000e+00,2.39533018e-08,0.00000000e+00,1.80000000e+00,5.35587042e-11,3.06190095e-01,3.37408605e-01,4.78530451e-08,5.35586352e-11,1.80000000e+00,3.24120200e-01,5.35587165e-11,1.80000000e+00,5.35587518e-11,2.92042959e-01,3.13471108e-01,0.00000000e+00,7.17527898e-08,1.80000000e+00,0.00000000e+00,3.13471108e-01,0.00000000e+00,3.06398155e-19,-7.93083469e-20,2.81874742e-19,2.69143482e-11,3.70481578e-19,-4.39358060e-11,3.04892727e-20,-1.37480814e-19,1.94437885e-11,-1.00289206e-11,4.29229760e-19,-9.94191804e-12,1.50332819e-11,-9.81622683e-12,-9.94191794e-12,1.50332824e-11
4.77500000e-11,1.80000000e+00,0.00000000e+00,1.80000000e+00,0.00000000e+00,1.80000000e+00,0.00000000e+00,1.80000000e+00,2.39533017e-08,0.00000000e+00,1.80000000e+00,5.35586522e-11,3.06190095e-01,3.37408605e-01,4.78530455e-08,5.35587828e-11,1.80000000e+00,3.24120200e-01,5.35587200e-11,1.80000000e+00,5.35588245e-11,2.92042959e-01,3.13471108e-01,0.00000000e+00,7.17527899e-08,1.80000000e+00,0.00000000e+00,3.13471108e-01,0.00000000e+00,-4.04454224e-19,-8.38997765e-20,-4.53335555e-19,2.69143491e-11,-2.23935505e-19,-4.39357991e-11,1.06575032e-19,2.05932408e-19,1.94437882e-11,-1.00289207e-11,-8.86966946e-19,-9.94191787e-12,1.50332812e-11,-9.81622700e-12,-9.94191799e-12,1.50332806e-11
5.00000000e-11,1.80000000e+00,0.00000000e+00,1.80000000e+00,0.00000000e+00,1.80000000e+00,0.00000000e+00,1.80000000e+00,2.39533018e-08,0.00000000e+00,1.80000000e+00,5.35588096e-11,3.06190095e-01,3.37408605e-01,4.78530454e-08,5.35587840e-11,1.80000000e+00,3.24120200e-01,5.35587639e-11,1.80000000e+00,5.35587163e-11,2.92042959e-01,3.13471108e-01,0.00000000e+00,7.17527897e-08,1.80000000e+00,0.00000000e+00,3.13471108e-01,0.00000000e+00,8.47470518e-19,3.02964665e-19,4.84376091e-19,2.69143481e-11,4.28323131e-19,-4.39358072e-11,1.99588649e-19,-4.78284146e-19,1.94437887e-11,-1.00289206e-11,1.00028456e-18,-9.94191809e-12,1.50332819e-11,-9.81622681e-12,-9.94191793e-12,1.50332824e-11
5.03277031e-11,1.78820269e+00,0.00000000e+00,1.80000000e+00,1.17973104e-02,1.80000000e+00,1.17973104e-02,1.80000000e+00,-5.94729839e-03,0.00000000e+00,1.80000000e+00,-2.62540167e-03,3.08057306e-01,3.36161844e-01,-5.96266215e-03,-1.88975221e-03,1.80000000e+00,3.25995446e-01,-1.87612156e-03,1.78820269e+00,-5.92091673e-03,2.94029765e-01,3.12061497e-01,1.17973104e-02,-1.47441896e-03,1.78820269e+00,0.00000000e+00,3.12060708e-01,0.00000000e+00,-5.89947404e-05,6.53216749e-05,-2.88993365e-05,-1.66265691e-05,3.58349961e-05,-2.76991998e-05,1.62133060e-04,-8.47700490e-06,-1.65893096e-05,2.35598206e-06,-1.15940045e-04,2.33175197e-06,-1.38392241e-05,2.35761175e-06,2.33168687e-06,-1.38484080e-05
5.06226358e-11,1.77758511e+00,0.00000000e+00,1.80000000e+00,2.24148898e-02,1.80000000e+00,2.24148898e-02,1.80000000e+00,-1.05954182e-02,0.00000000e+00,1.80000000e+00,-5.22643007e-03,3.09697930e-01,3.35057643e-01,-1.07638325e-02,-3.29040517e-03,1.80000000e+00,3.27631738e-01,-3.27456175e-03,1.77758511e+00,-1.01357367e-02,2.95790768e-01,3.10802626e-01,2.24148898e-02,-2.99067952e-03,1.77758511e+00,0.00000000e+00,3.10801821e-01,0.00000000e+00,-5.90306169e-05,6.84034347e-05,-2.93156647e-05,-1.93040802e-05,3.64485193e-05,-2.87103818e-05,1.65886523e-04,-9.68571576e-06,-1.89781582e-05,2.37630014e-06,-1.15743991e-04,2.35001779e-06,-1.46668888e-05,2.37547567e-06,2.34999679e-06,-1.46764320e-05
5.12125014e-11,1.75634995e+00,0.00000000e+00,1.80000000e+00,4.36500486e-02,1.80000000e+00,4.36500486e-02,1.80000000e+00,-1.87449078e-02,0.00000000e+00,1.80000000e+00,-1.05986202e-02,3.12896510e-01,3.32781511e-01,-1.94406692e-02,-5.58465284e-03,1.80000000e+00,3.30780275e-01,-5.57477849e-03,1.75634995e+00,-1.70343089e-02,2.99270740e-01,3.08195477e-01,4.36500486e-02,-6.32394498e-03,1.75634995e+00,0.00000000e+00,3.08194661e-01,0.00000000e+00,-5.81837276e-05,7.21974426e-05,-2.94936533e-05,-2.38534134e-05,3.68903078e-05,-2.77420572e-05,1.69693613e-04,-1.16068396e-05,-2.27794534e-05,2.33520286e-06,-1.13924361e-04,2.29728293e-06,-1.59691188e-05,2.32946622e-06,2.29732571e-06,-1.59741433e-05
5.23922324e-11,1.71387963e+00,0.00000000e+00,1.80000000e+00,8.61203662e-02,1.80000000e+00,8.61203662e-02,1.80000000e+00,-3.01880744e-02,0.00000000e+00,1.80000000e+00,-2.09453661e-02,3.18960477e-01,3.28379687e-01,-3.28072140e-02,-8.13530338e-03,1.80000000e+00,3.37044855e-01,-8.14735521e-03,1.71387963e+00,-2.57275374e-02,3.06081561e-01,3.02618534e-01,8.61203662e-02,-1.41724689e-02,1.71387963e+00,0.00000000e+00,3.02617766e-01,0.00000000e+00,-5.72380297e-05,7.64472982e-05,-2.94653723e-05,-2.99262964e-05,3.75362016e-05,-2.64929876e-05,1.73183648e-04,-1.34609404e-05,-2.73561332e-05,2.26845523e-06,-1.12250255e-04,2.21864506e-06,-1.73094862e-05,2.25942661e-06,2.21869637e-06,-1.73024452e-05
5.47516945e-11,1.62893900e+00,0.00000000e+00,1.80000000e+00,1.71061001e-01,1.80000000e+00,1.71061001e-01,1.80000000e+00,-4.39850927e-02,0.00000000e+00,1.80000000e+00,-3.64817224e-02,3.29658434e-01,3.18711400e-01,-5.16107064e-02,-9.84150618e-03,1.80000000e+00,3.47956125e-01,-9.89004413e-03,1.62893900e+00,-3.66364605e-02,3.19240639e-01,2.89929327e-01,1.71061001e-01,-3.11229216e-02,1.62893900e+00,0.00000000e+00,2.89928483e-01,0.00000000e+00,-5.60847400e-05,7.97573580e-05,-2.91256642e-05,-3.61890709e-05,3.80799798e-05,-2.30381255e-05,1.75371817e-04,-1.36084947e-05,-3.22591738e-05,2.06750889e-06,-1.11053526e-04,1.95124695e-06,-1.79738841e-05,2.04987267e-06,1.95139802e-06,-1.79475451e-05
5.71111566e-11,1.54399836e+00,0.00000000e+00,1.80000000e+00,2.56001636e-01,1.80000000e+00,2.56001636e-01,1.80000000e+00,-5.29642149e-02,0.00000000e+00,1.80000000e+00,-4.64390223e-02,3.37970849e-01,3.08556590e-01,-6.56243723e-02,-9.90038027e-03,1.80000000e+00,3.56377675e-01,-1.00307588e-02,1.54399836e+00,-4.41959448e-02,3.31945230e-01,2.74618289e-01,2.56001636e-01,-4.72358447e-02,1.54399836e+00,0.00000000e+00,2.74617511e-01,0.00000000e+00,-5.66777003e-05,8.06684329e-05,-2.93064946e-05,-3.90666777e-05,3.84749550e-05,-2.00571918e-05,1.77143221e-04,-1.21234273e-05,-3.46791015e-05,1.78599562e-06,-1.11718895e-04,1.53165797e-06,-1.76571893e-05,1.74639676e-06,1.53247430e-06,-1.75915683e-05
6.18300807e-11,1.37411709e+00,0.00000000e+00,1.80000000e+00,4.25882907e-01,1.80000000e+00,4.25882907e-01,1.80000000e+00,-6.71147897e-02,0.00000000e+00,1.80000000e+00,-5.47218091e-02,3.42784026e-01,2.87415613e-01,-8.77301668e-02,-7.48354985e-03,1.80000000e+00,3.61414890e-01,-8.21468818e-03,1.37411709e+00,-5.25756878e-02,3.56381166e-01,2.30335100e-01,4.25882907e-01,-7.35993032e-02,1.37411709e+00,0.00000000e+00,2.30334269e-01,0.00000000e+00,-6.00382419e-05,8.14141144e-05,-3.06404181e-05,-4.07694785e-05,3.89874475e-05,-1.36783217e-05,1.84506058e-04,-8.92745385e-06,-3.45677385e-05,9.58045203e-07,-1.16765962e-04,9.98286405e-08,-1.60366238e-05,7.55482141e-07,1.09612972e-07,-1.57311694e-05
6.65490049e-11,1.20423582e+00,0.00000000e+00,1.80000000e+00,5.95764177e-01,1.80000000e+00,5.95764177e-01,1.80000000e+00,-7.55105302e-02,0.00000000e+00,1.80000000e+00,-4.81543308e-02,3.21611841e-01,2.65287429e-01,-1.01402149e-01,7.00035580e-04,1.80000000e+00,3.40635723e-01,1.66079121e-05,1.20423582e+00,-5.33652747e-02,3.79656600e-01,1.55643579e-01,5.95764177e-01,-9.00726857e-02,1.20423582e+00,0.00000000e+00,1.55642913e-01,0.00000000e+00,-6.92524384e-05,8.25163503e-05,-3.61765918e-05,-3.74406278e-05,4.02188928e-05,-8.37282225e-06,2.02898225e-04,-4.22632925e-06,-2.98872726e-05,-2.63174845e-06,-1.31460719e-04,-2.93477162e-06,-1.24888648e-05,-2.42286434e-06,-2.93629818e-06,-1.23395000e-05
7.12679291e-11,1.03435455e+00,0.00000000e+00,1.80000000e+00,7.65645447e-01,1.80000000e+00,7.65645447e-01,1.80000000e+00,-7.04806546e-02,0.00000000e+00,1.80000000e+00,-3.32111665e-02,2.79257734e-01,2.42382521e-01,-1.02341335e-01,9.75905708e-03,1.80000000e+00,2.98545815e-01,1.68127631e-02,1.03435455e+00,-4.34068859e-02,4.01960184e-01,5.75856540e-02,7.65645447e-01,-9.47636638e-02,1.03435455e+00,0.00000000e+00,5.75855497e-02,0.00000000e+00,-7.32021999e-05,8.46020319e-05,-3.70918442e-05,-2.83402917e-05,4.16429419e-05,-3.42426824e-08,2.19539183e-04,4.80643847e-07,-2.17874336e-05,-1.90843662e-05,-1.39109830e-04,-1.06850630e-05,-1.03139372e-05,-1.53856792e-05,-1.06140418e-05,-1.10435724e-05
7.59868533e-11,8.64473283e-01,0.00000000e+00,1.80000000e+00,9.35526717e-01,1.80000000e+00,9.35526717e-01,1.80000000e+00,-3.71757044e-02,0.00000000e+00,1.80000000e+00,-1.26387560e-02,2.67008591e-01,2.18854858e-01,-8.39852859e-02,3.08042107e-02,1.80000000e+00,2.85909374e-01,5.34034222e-02,8.64473283e-01,-1.07263471e-02,4.23465196e-01,-1.79771934e-04,9.35526717e-01,-8.46134803e-02,8.64473283e-01,0.00000000e+00,-1.76444408e-04,0.00000000e+00,-7.04153922e-05,9.07202637e-05,-3.74332760e-05,-1.56904897e-05,4.38433434e-05,1.80521095e-05,2.32880955e-04,7.62414657e-06,-1.25665737e-05,-4.67049398e-05,-1.30256551e-04,-3.34620222e-05,-8.45272782e-06,-4.08500585e-05,-3.03172812e-05,-9.77197200e-06
7.66207013e-11,8.41654753e-01,0.00000000e+00,1.80000000e+00,9.58345247e-01,1.80000000e+00,9.58345247e-01,1.80000000e+00,-2.92271107e-02,0.00000000e+00,1.80000000e+00,-9.49260386e-03,2.72335175e-01,2.15649824e-01,-7.98927167e-02,3.58845885e-02,1.80000000e+00,2.91102634e-01,6.10260895e-02,8.41654753e-01,-3.59208794e-03,4.26296806e-01,8.75773020e-04,9.58345247e-01,-8.19422394e-02,8.41654753e-01,0.00000000e+00,8.80076636e-04,0.00000000e+00,-6.89232341e-05,9.11704954e-05,-3.69283763e-05,-1.40436595e-05,4.37689079e-05,2.13192773e-05,2.31746107e-04,7.93978605e-06,-1.14250850e-05,-5.04222605e-05,-1.27072503e-04,-3.72334317e-05,-8.82558002e-06,-4.44768986e-05,-3.34479617e-05,-9.99564934e-06
7.72545493e-11,8.18836224e-01,0.00000000e+00,1.80000000e+00,9.81163776e-01,1.80000000e+00,9.81163776e-01,1.80000000e+00,-2.05319798e-02,0.00000000e+00,1.80000000e+00,-6.06955208e-03,2.78727488e-01,2.12434898e-01,-7.55248811e-02,4.15213674e-02,1.80000000e+00,2.97351530e-01,6.93166330e-02,8.18836224e-01,3.67114667e-03,4.29115222e-01,3.27148516e-03,9.81163776e-01,-7.91305834e-02,8.18836224e-01,0.00000000e+00,3.27703498e-03,0.00000000e+00,-6.73367057e-05,9.10421238e-05,-3.67125475e-05,-1.23383324e-05,4.36932886e-05,2.53733097e-05,2.31553894e-04,8.77450360e-06,-1.25161624e-05,-5.44064961e-05,-1.24200284e-04,-4.14061191e-05,-8.42146763e-06,-4.83037684e-05,-3.69894790e-05,-9.71238757e-06
